# Hz S RI R 50
! Date: 05/09/2024 11:50:55 am
! Freq                             S11                  
3.00000000000E+05 -4.86781813433E-01  7.84948046519E-01
4.52985000000E+07 -4.14948702451E-01  8.25409926155E-01
9.02970000000E+07 -3.38768413330E-01  8.58423014912E-01
1.35295500000E+08 -2.60777882723E-01  8.84957509849E-01
1.80294000000E+08 -1.80477295732E-01  9.04327428357E-01
2.25292500000E+08 -9.99712137007E-02  9.16563540807E-01
2.70291000000E+08 -1.89828190264E-02  9.22265309003E-01
3.15289500000E+08  6.05410486438E-02  9.19802339220E-01
3.60288000000E+08  1.39261937542E-01  9.11974644266E-01
4.05286500000E+08  2.16370676079E-01  8.95398666943E-01
4.50285000000E+08  2.90540784855E-01  8.73756108017E-01
4.95283500000E+08  3.61326803235E-01  8.47305288498E-01
5.40282000000E+08  4.30053583387E-01  8.14606576757E-01
5.85280500000E+08  4.94267555417E-01  7.77379214662E-01
6.30279000000E+08  5.54732757832E-01  7.36322621536E-01
6.75277500000E+08  6.10673674398E-01  6.91263539572E-01
7.20276000000E+08  6.62158608472E-01  6.41834170870E-01
7.65274500000E+08  7.09096583570E-01  5.90771039716E-01
8.10273000000E+08  7.51855596174E-01  5.35836918352E-01
8.55271500000E+08  7.89025296151E-01  4.79611008435E-01
9.00270000000E+08  8.22426809388E-01  4.21959870095E-01
9.45268500000E+08  8.49386046665E-01  3.62502622752E-01
9.90267000000E+08  8.73685807268E-01  3.01945561261E-01
1.03526550000E+09  8.93123018931E-01  2.40433961816E-01
1.08026400000E+09  9.07554579510E-01  1.80395971556E-01
1.12526250000E+09  9.17886946211E-01  1.18547839666E-01
1.17026100000E+09  9.23545707534E-01  5.85719048758E-02
1.21525950000E+09  9.27394090938E-01 -1.59652983810E-03
1.26025800000E+09  9.25086498897E-01 -6.09664787457E-02
1.30525650000E+09  9.19739238718E-01 -1.18217686466E-01
1.35025500000E+09  9.11575278456E-01 -1.75168742145E-01
1.39525350000E+09  8.99197709121E-01 -2.31231169610E-01
1.44025200000E+09  8.84540723054E-01 -2.85993766720E-01
1.48525050000E+09  8.65588414494E-01 -3.38519950978E-01
1.53024900000E+09  8.44410192163E-01 -3.89039365621E-01
1.57524750000E+09  8.20687151371E-01 -4.37484210947E-01
1.62024600000E+09  7.95439242682E-01 -4.84956771771E-01
1.66524450000E+09  7.65671098882E-01 -5.30381906267E-01
1.71024300000E+09  7.34132272159E-01 -5.73707535814E-01
1.75524150000E+09  7.01404853049E-01 -6.14671651955E-01
1.80024000000E+09  6.65675154039E-01 -6.53291766566E-01
1.84523850000E+09  6.29516896777E-01 -6.90915713360E-01
1.89023700000E+09  5.89302799781E-01 -7.25275612715E-01
1.93523550000E+09  5.49112966110E-01 -7.57439598389E-01
1.98023400000E+09  5.05641674335E-01 -7.86748564963E-01
2.02523250000E+09  4.63192733095E-01 -8.13980808550E-01
2.07023100000E+09  4.17609432600E-01 -8.39013293549E-01
2.11522950000E+09  3.70115390838E-01 -8.61682847062E-01
2.16022800000E+09  3.22719761025E-01 -8.80125343321E-01
2.20522650000E+09  2.73420581987E-01 -8.97608249610E-01
2.25022500000E+09  2.24061376280E-01 -9.11406287402E-01
2.29522350000E+09  1.72862375720E-01 -9.23390205133E-01
2.34022200000E+09  1.21590050399E-01 -9.32177310857E-01
2.38522050000E+09  6.81785580493E-02 -9.37519205548E-01
2.43021900000E+09  1.64671942961E-02 -9.40856621310E-01
2.47521750000E+09 -3.77772703239E-02 -9.41678096823E-01
2.52021600000E+09 -9.22643622611E-02 -9.37295585884E-01
2.56521450000E+09 -1.47310212211E-01 -9.31084982822E-01
2.61021300000E+09 -2.01943075056E-01 -9.21359073243E-01
2.65521150000E+09 -2.56191468477E-01 -9.07256296192E-01
2.70021000000E+09 -3.11342683024E-01 -8.91339806139E-01
2.74520850000E+09 -3.66049158677E-01 -8.69425224463E-01
2.79020700000E+09 -4.21085454577E-01 -8.45436534281E-01
2.83520550000E+09 -4.75205206933E-01 -8.15806407741E-01
2.88020400000E+09 -5.28620907949E-01 -7.81559660022E-01
2.92520250000E+09 -5.81534586483E-01 -7.42846331202E-01
2.97020100000E+09 -6.33143015200E-01 -6.98869219475E-01
3.01519950000E+09 -6.84514684510E-01 -6.49967057923E-01
3.06019800000E+09 -7.31908643106E-01 -5.94028478525E-01
3.10519650000E+09 -7.78642856056E-01 -5.32275399011E-01
3.15019500000E+09 -8.20645927196E-01 -4.62198445600E-01
3.19519350000E+09 -8.58982020854E-01 -3.85523039843E-01
3.24019200000E+09 -8.91111959903E-01 -2.97574222779E-01
3.28519050000E+09 -9.16190996073E-01 -2.01283200048E-01
3.33018900000E+09 -9.31397399567E-01 -9.09795647163E-02
3.37518750000E+09 -9.33365757466E-01  3.33805632992E-02
3.42018600000E+09 -9.11752932256E-01  1.77171187536E-01
3.46518450000E+09 -8.55026166099E-01  3.47443749058E-01
3.51018300000E+09 -7.29159261735E-01  5.45864721934E-01
3.55518150000E+09 -4.49531721260E-01  7.60626859080E-01
3.60018000000E+09  1.94465685685E-01  7.35388290131E-01
3.64517850000E+09  1.26633608377E-01 -1.76046153980E-01
3.69017700000E+09 -1.40150308635E-01  5.11954642994E-02
3.73517550000E+09 -1.40381801852E-01 -4.48985630580E-02
3.78017400000E+09 -2.21253592069E-01  4.08567849059E-02
3.82517250000E+09 -5.76666752422E-02  5.26284019927E-02
3.87017100000E+09 -7.08990768078E-02 -1.71370874366E-01
3.91516950000E+09 -2.55053526555E-01 -1.40217664703E-01
3.96016800000E+09 -1.29601071732E-01 -2.85865562522E-02
4.00516650000E+09 -5.72258876946E-02 -2.68810833809E-01
4.05016500000E+09 -8.07551153994E-02 -3.93016053796E-01
4.09516350000E+09 -5.18621266423E-01 -6.73149747703E-01
4.14016200000E+09 -8.10211406464E-01 -4.15292142477E-01
4.18516050000E+09 -8.99332679146E-01 -1.86081434870E-01
4.23015900000E+09 -9.22542930293E-01  1.92092414441E-03
4.27515750000E+09 -9.07740495567E-01  1.59648497523E-01
4.32015600000E+09 -8.73914108356E-01  2.96890763003E-01
4.36515450000E+09 -8.21738035401E-01  4.17800156715E-01
4.41015300000E+09 -7.58978679080E-01  5.22368595691E-01
4.45515150000E+09 -6.86530516998E-01  6.14395937149E-01
4.50015000000E+09 -6.06323012449E-01  6.92239308154E-01
4.54514850000E+09 -5.19342362328E-01  7.59123078163E-01
4.59014700000E+09 -4.27532132300E-01  8.13588182042E-01
4.63514550000E+09 -3.32690356940E-01  8.56019227905E-01
4.68014400000E+09 -2.35068868334E-01  8.87612574047E-01
4.72514250000E+09 -1.36867455953E-01  9.06850466083E-01
4.77014100000E+09 -3.83889705144E-02  9.16893071143E-01
4.81513950000E+09  5.95592837879E-02  9.13857854959E-01
4.86013800000E+09  1.54836277444E-01  9.03157950797E-01
4.90513650000E+09  2.47744689767E-01  8.81444202957E-01
4.95013500000E+09  3.36566620174E-01  8.52308065376E-01
4.99513350000E+09  4.19263266126E-01  8.14497344802E-01
5.04013200000E+09  4.97261466293E-01  7.67962166130E-01
5.08513050000E+09  5.69906576498E-01  7.17026081291E-01
5.13012900000E+09  6.34918655940E-01  6.60111287681E-01
5.17512750000E+09  6.94383294831E-01  5.97418754403E-01
5.22012600000E+09  7.46803873160E-01  5.32237559572E-01
5.26512450000E+09  7.92130317451E-01  4.63124837619E-01
5.31012300000E+09  8.29652054887E-01  3.91213813080E-01
5.35512150000E+09  8.61646171242E-01  3.19182915152E-01
5.40012000000E+09  8.86293971288E-01  2.44965162127E-01
5.44511850000E+09  9.04013238074E-01  1.71261810445E-01
5.49011700000E+09  9.15853765132E-01  9.73127096217E-02
5.53511550000E+09  9.20726304506E-01  2.43051974660E-02
5.58011400000E+09  9.20455932465E-01 -4.84968757055E-02
5.62511250000E+09  9.15705156173E-01 -1.17087414268E-01
5.67011100000E+09  9.04495576973E-01 -1.85827059962E-01
5.71510950000E+09  8.90241169243E-01 -2.52346838894E-01
5.76010800000E+09  8.70694542997E-01 -3.14749341167E-01
5.80510650000E+09  8.46598153897E-01 -3.75860393697E-01
5.85010500000E+09  8.19630189396E-01 -4.33130444115E-01
5.89510350000E+09  7.88895514378E-01 -4.87691286730E-01
5.94010200000E+09  7.55837702062E-01 -5.39034281289E-01
5.98510050000E+09  7.19945731811E-01 -5.86352333480E-01
6.03009900000E+09  6.81263002248E-01 -6.31570401092E-01
6.07509750000E+09  6.42170675418E-01 -6.73592405114E-01
6.12009600000E+09  5.99604707374E-01 -7.11710226787E-01
6.16509450000E+09  5.55663865620E-01 -7.46221455506E-01
6.21009300000E+09  5.10303351537E-01 -7.78316344934E-01
6.25509150000E+09  4.64084309788E-01 -8.07171518873E-01
6.30009000000E+09  4.17382988100E-01 -8.34103719965E-01
6.34508850000E+09  3.70143200657E-01 -8.56144630889E-01
6.39008700000E+09  3.22760169371E-01 -8.75842912894E-01
6.43508550000E+09  2.74452403384E-01 -8.91948655845E-01
6.48008400000E+09  2.25394525289E-01 -9.05899673710E-01
6.52508250000E+09  1.76551669832E-01 -9.17578255998E-01
6.57008100000E+09  1.27846721503E-01 -9.24708972971E-01
6.61507950000E+09  7.87345498837E-02 -9.31274992867E-01
6.66007800000E+09  3.01666286273E-02 -9.33671723400E-01
6.70507650000E+09 -1.79553288518E-02 -9.34404096454E-01
6.75007500000E+09 -6.57939883530E-02 -9.31830193715E-01
6.79507350000E+09 -1.13687775440E-01 -9.29019056974E-01
6.84007200000E+09 -1.60789198445E-01 -9.21180752082E-01
6.88507050000E+09 -2.08052539640E-01 -9.12384570379E-01
6.93006900000E+09 -2.54709118790E-01 -9.00843777968E-01
6.97506750000E+09 -2.98847344189E-01 -8.87506701774E-01
7.02006600000E+09 -3.43288114129E-01 -8.71077966550E-01
7.06506450000E+09 -3.87029380462E-01 -8.52978870320E-01
7.11006300000E+09 -4.29548944630E-01 -8.32640207894E-01
7.15506150000E+09 -4.71188797927E-01 -8.09719925616E-01
7.20006000000E+09 -5.11543371078E-01 -7.85763460113E-01
7.24505850000E+09 -5.50836303460E-01 -7.58431691853E-01
7.29005700000E+09 -5.88609877025E-01 -7.29690417697E-01
7.33505550000E+09 -6.25087263768E-01 -6.99170455847E-01
7.38005400000E+09 -6.60319602848E-01 -6.64947055218E-01
7.42505250000E+09 -6.94167489480E-01 -6.30030603510E-01
7.47005100000E+09 -7.25127376487E-01 -5.93311775417E-01
7.51504950000E+09 -7.55011713307E-01 -5.54644080558E-01
7.56004800000E+09 -7.83216954082E-01 -5.13751988142E-01
7.60504650000E+09 -8.09244774752E-01 -4.71504808116E-01
7.65004500000E+09 -8.33752040002E-01 -4.26480144599E-01
7.69504350000E+09 -8.55434836626E-01 -3.80311931042E-01
7.74004200000E+09 -8.75671362112E-01 -3.32239867148E-01
7.78504050000E+09 -8.92233058260E-01 -2.83209901594E-01
7.83003900000E+09 -9.06654404779E-01 -2.31784538752E-01
7.87503750000E+09 -9.18901685037E-01 -1.79293077150E-01
7.92003600000E+09 -9.26576651383E-01 -1.24542305699E-01
7.96503450000E+09 -9.32121618233E-01 -6.94764776051E-02
8.01003300000E+09 -9.35065333002E-01 -1.24382309017E-02
8.05503150000E+09 -9.33495058505E-01  4.56208176713E-02
8.10003000000E+09 -9.28821513554E-01  1.03951005199E-01
8.14502850000E+09 -9.19912743286E-01  1.62366208320E-01
8.19002700000E+09 -9.06174149342E-01  2.23397565186E-01
8.23502550000E+09 -8.88236309319E-01  2.82592490076E-01
8.28002400000E+09 -8.67356590084E-01  3.41373515774E-01
8.32502250000E+09 -8.39926504244E-01  4.01072019674E-01
8.37002100000E+09 -8.08344448443E-01  4.58356718411E-01
8.41501950000E+09 -7.72243811828E-01  5.15887205098E-01
8.46001800000E+09 -7.32121145090E-01  5.70834915693E-01
8.50501650000E+09 -6.85211549543E-01  6.23419270911E-01
8.55001500000E+09 -6.34713897139E-01  6.73755913069E-01
8.59501350000E+09 -5.79254960646E-01  7.20454839118E-01
8.64001200000E+09 -5.18308229426E-01  7.62515246276E-01
8.68501050000E+09 -4.53035839345E-01  8.01250911990E-01
8.73000900000E+09 -3.84816232874E-01  8.36210417452E-01
8.77500750000E+09 -3.10737942962E-01  8.63687558570E-01
8.82000600000E+09 -2.34872809018E-01  8.86324483208E-01
8.86500450000E+09 -1.54731133040E-01  9.01811749708E-01
8.91000300000E+09 -7.34763807442E-02  9.10962996988E-01
8.95500150000E+09  9.98244904695E-03  9.12518914927E-01
9.00000000000E+09  9.39680958069E-02  9.06727702200E-01
