# Hz S RI R 50
! Date: 05/09/2024 11:50:30 am
! Freq                             S11                  
3.00000000000E+05 -4.87399039514E-01  7.84540075739E-01
4.52985000000E+07 -4.14090484138E-01  8.24439150397E-01
9.02970000000E+07 -3.39253327384E-01  8.58125275881E-01
1.35295500000E+08 -2.60341943202E-01  8.85740900599E-01
1.80294000000E+08 -1.80839904414E-01  9.05237745511E-01
2.25292500000E+08 -1.00159146280E-01  9.17581156040E-01
2.70291000000E+08 -1.99365855169E-02  9.21485190951E-01
3.15289500000E+08  6.06290161262E-02  9.20431032947E-01
3.60288000000E+08  1.40114603778E-01  9.11075296085E-01
4.05286500000E+08  2.16242635930E-01  8.96074065180E-01
4.50285000000E+08  2.91190780181E-01  8.74153095091E-01
4.95283500000E+08  3.62347826996E-01  8.47682885957E-01
5.40282000000E+08  4.29776555169E-01  8.15509703399E-01
5.85280500000E+08  4.94232474240E-01  7.77305786632E-01
6.30279000000E+08  5.53832363890E-01  7.35965112231E-01
6.75277500000E+08  6.10414035984E-01  6.90569977239E-01
7.20276000000E+08  6.62436155695E-01  6.41348703118E-01
7.65274500000E+08  7.08755793885E-01  5.90012731401E-01
8.10273000000E+08  7.51492580261E-01  5.35980763152E-01
8.55271500000E+08  7.88958493514E-01  4.79613588386E-01
9.00270000000E+08  8.22397077635E-01  4.22090277737E-01
9.45268500000E+08  8.50083448960E-01  3.62446106470E-01
9.90267000000E+08  8.74398386894E-01  3.01814559306E-01
1.03526550000E+09  8.93086505030E-01  2.40502610240E-01
1.08026400000E+09  9.07527461184E-01  1.80285708119E-01
1.12526250000E+09  9.18196253090E-01  1.19399590178E-01
1.17026100000E+09  9.24296337063E-01  5.90533224928E-02
1.21525950000E+09  9.27208404462E-01 -1.78905807043E-03
1.26025800000E+09  9.25083602018E-01 -6.03486193587E-02
1.30525650000E+09  9.19327145774E-01 -1.18754816691E-01
1.35025500000E+09  9.10778577510E-01 -1.75591920017E-01
1.39525350000E+09  8.99795999163E-01 -2.30898558298E-01
1.44025200000E+09  8.83882509222E-01 -2.84882932183E-01
1.48525050000E+09  8.65381738678E-01 -3.38621723376E-01
1.53024900000E+09  8.44537677909E-01 -3.88741376626E-01
1.57524750000E+09  8.21405901055E-01 -4.38632717982E-01
1.62024600000E+09  7.94777585505E-01 -4.85994230431E-01
1.66524450000E+09  7.66052528370E-01 -5.29797506188E-01
1.71024300000E+09  7.35033196616E-01 -5.73790685483E-01
1.75524150000E+09  7.01256958709E-01 -6.15029615066E-01
1.80024000000E+09  6.66038659352E-01 -6.53542016144E-01
1.84523850000E+09  6.28732501802E-01 -6.89786774552E-01
1.89023700000E+09  5.89642446629E-01 -7.24498256702E-01
1.93523550000E+09  5.49282856563E-01 -7.57372389585E-01
1.98023400000E+09  5.06675687886E-01 -7.86937711448E-01
2.02523250000E+09  4.62447027320E-01 -8.13819068473E-01
2.07023100000E+09  4.16787427088E-01 -8.38987708412E-01
2.11522950000E+09  3.69855356994E-01 -8.61138378956E-01
2.16022800000E+09  3.22316928442E-01 -8.79761346286E-01
2.20522650000E+09  2.74060638884E-01 -8.97556237481E-01
2.25022500000E+09  2.23227790275E-01 -9.12329731610E-01
2.29522350000E+09  1.73718591558E-01 -9.23630764656E-01
2.34022200000E+09  1.22073120936E-01 -9.32529998470E-01
2.38522050000E+09  6.86309900395E-02 -9.37911462001E-01
2.43021900000E+09  1.54344604705E-02 -9.41172960492E-01
2.47521750000E+09 -3.80715558793E-02 -9.40187291885E-01
2.52021600000E+09 -9.18892118398E-02 -9.37607356062E-01
2.56521450000E+09 -1.46715423789E-01 -9.30921807033E-01
2.61021300000E+09 -2.01048987849E-01 -9.21328864567E-01
2.65521150000E+09 -2.56303150572E-01 -9.08517610857E-01
2.70021000000E+09 -3.11365602804E-01 -8.90734443413E-01
2.74520850000E+09 -3.66285632478E-01 -8.68861229544E-01
2.79020700000E+09 -4.20610599893E-01 -8.45277777842E-01
2.83520550000E+09 -4.75060109093E-01 -8.16242088598E-01
2.88020400000E+09 -5.28522119878E-01 -7.81315478416E-01
2.92520250000E+09 -5.81080281395E-01 -7.43074979213E-01
2.97020100000E+09 -6.33467422252E-01 -6.99592288151E-01
3.01519950000E+09 -6.84206367466E-01 -6.49745263703E-01
3.06019800000E+09 -7.32422111113E-01 -5.93593202441E-01
3.10519650000E+09 -7.77291259645E-01 -5.31702959070E-01
3.15019500000E+09 -8.20493828648E-01 -4.62192503483E-01
3.19519350000E+09 -8.58944724214E-01 -3.83727853839E-01
3.24019200000E+09 -8.91123277794E-01 -2.98487972725E-01
3.28519050000E+09 -9.16211832057E-01 -2.00666748862E-01
3.33018900000E+09 -9.31853198771E-01 -9.18342970287E-02
3.37518750000E+09 -9.33235123163E-01  3.27382409218E-02
3.42018600000E+09 -9.12314521211E-01  1.77834466869E-01
3.46518450000E+09 -8.55158629013E-01  3.47461424819E-01
3.51018300000E+09 -7.28674047595E-01  5.46503829967E-01
3.55518150000E+09 -4.49101038737E-01  7.60771447912E-01
3.60018000000E+09  1.94065205801E-01  7.34547027498E-01
3.64517850000E+09  1.26861293307E-01 -1.76559307820E-01
3.69017700000E+09 -1.39952689558E-01  5.14307845833E-02
3.73517550000E+09 -1.39407287512E-01 -4.53182194852E-02
3.78017400000E+09 -2.21687270705E-01  4.04843456531E-02
3.82517250000E+09 -5.71502842922E-02  5.25025836801E-02
3.87017100000E+09 -7.10031521194E-02 -1.71036009383E-01
3.91516950000E+09 -2.55053938044E-01 -1.41138167300E-01
3.96016800000E+09 -1.30349786809E-01 -2.83150474936E-02
4.00516650000E+09 -5.74558040010E-02 -2.68240761522E-01
4.05016500000E+09 -8.08537054708E-02 -3.93882981920E-01
4.09516350000E+09 -5.19129161510E-01 -6.72930650614E-01
4.14016200000E+09 -8.09644795238E-01 -4.15453611150E-01
4.18516050000E+09 -8.99891284225E-01 -1.87080683191E-01
4.23015900000E+09 -9.22302025368E-01  1.90059048114E-03
4.27515750000E+09 -9.08840643161E-01  1.59590928509E-01
4.32015600000E+09 -8.73191712411E-01  2.97498761675E-01
4.36515450000E+09 -8.22698803045E-01  4.16872781087E-01
4.41015300000E+09 -7.59650240214E-01  5.21807043321E-01
4.45515150000E+09 -6.86615935123E-01  6.14215506267E-01
4.50015000000E+09 -6.06443984714E-01  6.92500166835E-01
4.54514850000E+09 -5.19464817056E-01  7.58408651048E-01
4.59014700000E+09 -4.27921527410E-01  8.12606290503E-01
4.63514550000E+09 -3.32565212384E-01  8.55964636309E-01
4.68014400000E+09 -2.35839654752E-01  8.87993378435E-01
4.72514250000E+09 -1.35898778142E-01  9.07433112289E-01
4.77014100000E+09 -3.80994965400E-02  9.16540142670E-01
4.81513950000E+09  5.98459873617E-02  9.14062600604E-01
4.86013800000E+09  1.54598106999E-01  9.03153477890E-01
4.90513650000E+09  2.47156888625E-01  8.82301309016E-01
4.95013500000E+09  3.36454760973E-01  8.51625086750E-01
4.99513350000E+09  4.19646458053E-01  8.14297780925E-01
5.04013200000E+09  4.97479825754E-01  7.68538748837E-01
5.08513050000E+09  5.69102183366E-01  7.17282468096E-01
5.13012900000E+09  6.34970872008E-01  6.60042579405E-01
5.17512750000E+09  6.93913881238E-01  5.97673262787E-01
5.22012600000E+09  7.46782014135E-01  5.31718844527E-01
5.26512450000E+09  7.91505914379E-01  4.63362596510E-01
5.31012300000E+09  8.30249881557E-01  3.92033061881E-01
5.35512150000E+09  8.61279856864E-01  3.18396942677E-01
5.40012000000E+09  8.85696209014E-01  2.45553178918E-01
5.44511850000E+09  9.03593053943E-01  1.70670745755E-01
5.49011700000E+09  9.16093265120E-01  9.76087172681E-02
5.53511550000E+09  9.21400900116E-01  2.39044899881E-02
5.58011400000E+09  9.20607741275E-01 -4.82352501015E-02
5.62511250000E+09  9.15332781049E-01 -1.18602044712E-01
5.67011100000E+09  9.05620803298E-01 -1.85660171682E-01
5.71510950000E+09  8.90643952213E-01 -2.51759709026E-01
5.76010800000E+09  8.70060502886E-01 -3.14854176618E-01
5.80510650000E+09  8.46895560318E-01 -3.75122700534E-01
5.85010500000E+09  8.19743631799E-01 -4.32507335512E-01
5.89510350000E+09  7.89602431652E-01 -4.88139262618E-01
5.94010200000E+09  7.56140633058E-01 -5.38615945035E-01
5.98510050000E+09  7.19595176200E-01 -5.86796302268E-01
6.03009900000E+09  6.81777392774E-01 -6.30798334991E-01
6.07509750000E+09  6.41491143904E-01 -6.73937724735E-01
6.12009600000E+09  6.00179078307E-01 -7.12181040473E-01
6.16509450000E+09  5.56327965065E-01 -7.46364520392E-01
6.21009300000E+09  5.10980561005E-01 -7.78762644022E-01
6.25509150000E+09  4.64850741638E-01 -8.07126802848E-01
6.30009000000E+09  4.17604382176E-01 -8.33540255702E-01
6.34508850000E+09  3.70998641715E-01 -8.55964625860E-01
6.39008700000E+09  3.22106588435E-01 -8.75485167294E-01
6.43508550000E+09  2.74524148785E-01 -8.91370959155E-01
6.48008400000E+09  2.25611360182E-01 -9.05730656163E-01
6.52508250000E+09  1.76260549255E-01 -9.17097000564E-01
6.57008100000E+09  1.28228496767E-01 -9.24868144062E-01
6.61507950000E+09  7.84519859140E-02 -9.31037546014E-01
6.66007800000E+09  3.03597185094E-02 -9.33681861175E-01
6.70507650000E+09 -1.83322064842E-02 -9.33830530826E-01
6.75007500000E+09 -6.68386105458E-02 -9.33268352915E-01
6.79507350000E+09 -1.14292290709E-01 -9.28236469617E-01
6.84007200000E+09 -1.60677325448E-01 -9.21887585807E-01
6.88507050000E+09 -2.08679705417E-01 -9.12976606789E-01
6.93006900000E+09 -2.54152638774E-01 -9.01040036300E-01
6.97506750000E+09 -2.99215874042E-01 -8.87704612733E-01
7.02006600000E+09 -3.44138758716E-01 -8.71241405322E-01
7.06506450000E+09 -3.87461811813E-01 -8.53028253839E-01
7.11006300000E+09 -4.30198455774E-01 -8.32271925206E-01
7.15506150000E+09 -4.72225432847E-01 -8.10088632649E-01
7.20006000000E+09 -5.12111793427E-01 -7.85801385530E-01
7.24505850000E+09 -5.51534861200E-01 -7.58472876076E-01
7.29005700000E+09 -5.88475240222E-01 -7.28921106738E-01
7.33505550000E+09 -6.25315479144E-01 -6.98929581508E-01
7.38005400000E+09 -6.59959348475E-01 -6.65123425065E-01
7.42505250000E+09 -6.93373064573E-01 -6.29965255304E-01
7.47005100000E+09 -7.25356259358E-01 -5.93164916095E-01
7.51504950000E+09 -7.55401119333E-01 -5.53615889723E-01
7.56004800000E+09 -7.84109542390E-01 -5.13504870658E-01
7.60504650000E+09 -8.09272351750E-01 -4.71246442665E-01
7.65004500000E+09 -8.34008969435E-01 -4.27082422590E-01
7.69504350000E+09 -8.56249046000E-01 -3.79446961722E-01
7.74004200000E+09 -8.75069428161E-01 -3.31994567610E-01
7.78504050000E+09 -8.92100238217E-01 -2.82991375806E-01
7.83003900000E+09 -9.06644204584E-01 -2.30818249587E-01
7.87503750000E+09 -9.17806263957E-01 -1.78932986302E-01
7.92003600000E+09 -9.26932916968E-01 -1.24781583456E-01
7.96503450000E+09 -9.32851640478E-01 -6.89778008350E-02
8.01003300000E+09 -9.35085833487E-01 -1.23364651746E-02
8.05503150000E+09 -9.33526824371E-01  4.50533160643E-02
8.10003000000E+09 -9.28253515329E-01  1.04649841762E-01
8.14502850000E+09 -9.19687677785E-01  1.63855370176E-01
8.19002700000E+09 -9.05794583748E-01  2.22876880828E-01
8.23502550000E+09 -8.89553523551E-01  2.82049020933E-01
8.28002400000E+09 -8.66314824628E-01  3.41086854098E-01
8.32502250000E+09 -8.39635048710E-01  4.00032819400E-01
8.37002100000E+09 -8.08438881965E-01  4.58030745588E-01
8.41501950000E+09 -7.72751160260E-01  5.15014929470E-01
8.46001800000E+09 -7.32253684499E-01  5.70379450925E-01
8.50501650000E+09 -6.85990647488E-01  6.23221287362E-01
8.55001500000E+09 -6.34777962497E-01  6.73660592151E-01
8.59501350000E+09 -5.79601581960E-01  7.19951014413E-01
8.64001200000E+09 -5.18840389716E-01  7.63754622916E-01
8.68501050000E+09 -4.53521345055E-01  8.01637673514E-01
8.73000900000E+09 -3.84379221364E-01  8.35849425224E-01
8.77500750000E+09 -3.10824212333E-01  8.63556473967E-01
8.82000600000E+09 -2.34427349983E-01  8.87060595497E-01
8.86500450000E+09 -1.55835111219E-01  9.02073301536E-01
8.91000300000E+09 -7.30683442789E-02  9.11368827930E-01
8.95500150000E+09  1.02227251491E-02  9.11706127093E-01
9.00000000000E+09  9.45255385086E-02  9.06825529723E-01
